T49F4 6453:313.785   SEGGER J-Link V7.84 Log File
T49F4 6453:313.843   DLL Compiled: Dec 14 2022 15:54:51
T49F4 6453:313.853   Logging started @ 2022-12-27 03:27
T49F4 6453:313.861 - 57499.632ms
T49F4 6453:313.875 JLINK_SetWarnOutHandler(...)
T49F4 6453:313.885 - 0.014ms
T49F4 6453:313.894 JLINK_OpenEx(...)
T49F4 6453:315.322   Firmware: J-Link ARM-OB STM32 compiled Aug 22 2012 19:52:04
T49F4 6453:315.772   Firmware: J-Link ARM-OB STM32 compiled Aug 22 2012 19:52:04
T49F4 6453:318.433   Hardware: V7.00
T49F4 6453:318.454   S/N: 20090928
T49F4 6453:318.467   OEM: SEGGER
T49F4 6453:318.479   Feature(s): RDI,FlashDL,FlashBP,JFlash,GDBFull
T49F4 6453:319.679   TELNET listener socket opened on port 19021
T49F4 6453:324.687   WEBSRV WEBSRV_Init(): Starting webserver thread(s)
T49F4 6453:324.894   WEBSRV Webserver running on local port 19080
T49F4 6453:332.002 - 18.123ms returns "O.K."
T49F4 6453:332.034 JLINK_GetEmuCaps()
T49F4 6453:332.044 - 0.014ms returns 0x88EA5833
T49F4 6453:332.060 JLINK_TIF_GetAvailable(...)
T49F4 6453:332.375 - 0.325ms
T49F4 6453:332.401 JLINK_SetErrorOutHandler(...)
T49F4 6453:332.417 - 0.023ms
T49F4 6453:333.048 JLINK_ExecCommand("ProjectFile = "E:\Git_space\che\sort_trolley_project\MDK-ARM\JLinkSettings.ini"", ...). 
T49F4 6453:335.169 - 2.130ms returns 0x00
T49F4 6453:335.209 JLINK_ExecCommand("Device = STM32F407VETx", ...). 
T49F4 6453:335.560   Device "STM32F407VE" selected.
T49F4 6453:336.032 - 0.819ms returns 0x00
T49F4 6453:336.048 JLINK_ExecCommand("DisableConnectionTimeout", ...). 
T49F4 6453:336.060 - 0.005ms returns 0x01
T49F4 6453:336.074 JLINK_GetHardwareVersion()
T49F4 6453:336.082 - 0.012ms returns 70000
T49F4 6453:336.093 JLINK_GetDLLVersion()
T49F4 6453:336.101 - 0.012ms returns 78400
T49F4 6453:336.113 JLINK_GetOEMString(...)
T49F4 6453:336.124 JLINK_GetFirmwareString(...)
T49F4 6453:336.132 - 0.012ms
T49F4 6453:336.156 JLINK_GetDLLVersion()
T49F4 6453:336.165 - 0.013ms returns 78400
T49F4 6453:336.175 JLINK_GetCompileDateTime()
T49F4 6453:336.184 - 0.012ms
T49F4 6453:336.198 JLINK_GetFirmwareString(...)
T49F4 6453:336.207 - 0.012ms
T49F4 6453:336.220 JLINK_GetHardwareVersion()
T49F4 6453:336.229 - 0.012ms returns 70000
T49F4 6453:336.242 JLINK_GetSN()
T49F4 6453:336.251 - 0.012ms returns 20090928
T49F4 6453:336.264 JLINK_GetOEMString(...)
T49F4 6453:336.284 JLINK_TIF_Select(JLINKARM_TIF_SWD)
T49F4 6453:337.200 - 0.927ms returns 0x00
T49F4 6453:337.222 JLINK_HasError()
T49F4 6453:337.234 JLINK_SetSpeed(5000)
T49F4 6453:337.410 - 0.187ms
T49F4 6453:337.432 JLINK_GetId()
T49F4 6453:337.728   InitTarget() start
T49F4 6453:337.746    J-Link Script File: Executing InitTarget()
T49F4 6453:362.480   InitTarget() end
T49F4 6453:363.474   Found SW-DP with ID 0x2BA01477
T49F4 6453:369.366   Old FW that does not support reading DPIDR via DAP jobs
T49F4 6453:375.868   DPv0 detected
T49F4 6453:375.894   CoreSight SoC-400 or earlier
T49F4 6453:375.912   Scanning AP map to find all available APs
T49F4 6453:379.580   AP[1]: Stopped AP scan as end of AP map has been reached
T49F4 6453:379.603   AP[0]: AHB-AP (IDR: 0x24770011)
T49F4 6453:379.619   Iterating through AP map to find AHB-AP to use
T49F4 6453:385.682   AP[0]: Core found
T49F4 6453:385.706   AP[0]: AHB-AP ROM base: 0xE00FF000
T49F4 6453:388.841   CPUID register: 0x410FC241. Implementer code: 0x41 (ARM)
T49F4 6453:388.864   Found Cortex-M4 r0p1, Little endian.
T49F4 6453:389.428   -- Max. mem block: 0x00002C18
T49F4 6453:389.645   CPU_ReadMem(4 bytes @ 0xE000EDF0)
T49F4 6453:390.156   CPU_ReadMem(4 bytes @ 0xE0002000)
T49F4 6453:390.683   FPUnit: 6 code (BP) slots and 2 literal slots
T49F4 6453:390.701   CPU_ReadMem(4 bytes @ 0xE000EDFC)
T49F4 6453:391.280   CPU_WriteMem(4 bytes @ 0xE000EDFC)
T49F4 6453:391.827   CPU_ReadMem(4 bytes @ 0xE0001000)
T49F4 6453:392.395   CPU_WriteMem(4 bytes @ 0xE0001000)
T49F4 6453:392.977   CPU_ReadMem(4 bytes @ 0xE000ED88)
T49F4 6453:393.476   CPU_WriteMem(4 bytes @ 0xE000ED88)
T49F4 6453:394.003   CPU_ReadMem(4 bytes @ 0xE000ED88)
T49F4 6453:394.526   CPU_WriteMem(4 bytes @ 0xE000ED88)
T49F4 6453:395.113   CoreSight components:
T49F4 6453:395.139   ROMTbl[0] @ E00FF000
T49F4 6453:395.153   CPU_ReadMem(64 bytes @ 0xE00FF000)
T49F4 6453:396.257   CPU_ReadMem(32 bytes @ 0xE000EFE0)
T49F4 6453:397.030   [0][0]: E000E000 CID B105E00D PID 000BB00C SCS-M7
T49F4 6453:397.049   CPU_ReadMem(32 bytes @ 0xE0001FE0)
T49F4 6453:397.829   [0][1]: E0001000 CID B105E00D PID 003BB002 DWT
T49F4 6453:397.847   CPU_ReadMem(32 bytes @ 0xE0002FE0)
T49F4 6453:398.715   [0][2]: E0002000 CID B105E00D PID 002BB003 FPB
T49F4 6453:398.737   CPU_ReadMem(32 bytes @ 0xE0000FE0)
T49F4 6453:399.530   [0][3]: E0000000 CID B105E00D PID 003BB001 ITM
T49F4 6453:399.548   CPU_ReadMem(32 bytes @ 0xE0040FE0)
T49F4 6453:400.332   [0][4]: E0040000 CID B105900D PID 000BB9A1 TPIU
T49F4 6453:400.350   CPU_ReadMem(32 bytes @ 0xE0041FE0)
T49F4 6453:401.131   [0][5]: E0041000 CID B105900D PID 000BB925 ETM
T49F4 6453:401.749 - 64.326ms returns 0x2BA01477
T49F4 6453:401.770 JLINK_GetDLLVersion()
T49F4 6453:401.779 - 0.013ms returns 78400
T49F4 6453:401.794 JLINK_CORE_GetFound()
T49F4 6453:401.803 - 0.012ms returns 0xE0000FF
T49F4 6453:401.815 JLINK_GetDebugInfo(0x100 = JLINKARM_ROM_TABLE_ADDR_INDEX)
T49F4 6453:401.825   Value=0xE00FF000
T49F4 6453:401.837 - 0.025ms returns 0
T49F4 6453:401.856 JLINK_GetDebugInfo(0x100 = JLINKARM_ROM_TABLE_ADDR_INDEX)
T49F4 6453:401.866   Value=0xE00FF000
T49F4 6453:401.878 - 0.025ms returns 0
T49F4 6453:401.889 JLINK_GetDebugInfo(0x101 = JLINKARM_DEBUG_INFO_ETM_ADDR_INDEX)
T49F4 6453:401.898   Value=0xE0041000
T49F4 6453:401.910 - 0.024ms returns 0
T49F4 6453:401.922 JLINK_ReadMemEx(0xE0041FD0, 0x20 Bytes, Flags = 0x02000004)
T49F4 6453:401.937   CPU_ReadMem(32 bytes @ 0xE0041FD0)
T49F4 6453:402.723   Data:  04 00 00 00 00 00 00 00 00 00 00 00 00 00 00 00 ...
T49F4 6453:402.740 - 0.822ms returns 32 (0x20)
T49F4 6453:402.753 JLINK_GetDebugInfo(0x102 = JLINKARM_DEBUG_INFO_MTB_ADDR_INDEX)
T49F4 6453:402.763   Value=0x00000000
T49F4 6453:402.775 - 0.031ms returns 0
T49F4 6453:402.791 JLINK_GetDebugInfo(0x103 = JLINKARM_DEBUG_INFO_TPIU_ADDR_INDEX)
T49F4 6453:402.800   Value=0xE0040000
T49F4 6453:402.812 - 0.024ms returns 0
T49F4 6453:402.823 JLINK_GetDebugInfo(0x104 = JLINKARM_DEBUG_INFO_ITM_ADDR_INDEX)
T49F4 6453:402.831   Value=0xE0000000
T49F4 6453:402.843 - 0.024ms returns 0
T49F4 6453:402.853 JLINK_GetDebugInfo(0x105 = JLINKARM_DEBUG_INFO_DWT_ADDR_INDEX)
T49F4 6453:402.862   Value=0xE0001000
T49F4 6453:402.873 - 0.024ms returns 0
T49F4 6453:402.884 JLINK_GetDebugInfo(0x106 = JLINKARM_DEBUG_INFO_FPB_ADDR_INDEX)
T49F4 6453:402.893   Value=0xE0002000
T49F4 6453:402.905 - 0.024ms returns 0
T49F4 6453:402.915 JLINK_GetDebugInfo(0x107 = JLINKARM_DEBUG_INFO_NVIC_ADDR_INDEX)
T49F4 6453:402.923   Value=0xE000E000
T49F4 6453:402.935 - 0.024ms returns 0
T49F4 6453:402.946 JLINK_GetDebugInfo(0x10C = JLINKARM_DEBUG_INFO_DBG_ADDR_INDEX)
T49F4 6453:402.955   Value=0xE000EDF0
T49F4 6453:402.966 - 0.024ms returns 0
T49F4 6453:402.976 JLINK_GetDebugInfo(0x01 = Unknown)
T49F4 6453:402.985   Value=0x00000001
T49F4 6453:402.997 - 0.024ms returns 0
T49F4 6453:403.009 JLINK_ReadMemU32(0xE000ED00, 0x1 Items)
T49F4 6453:403.021   CPU_ReadMem(4 bytes @ 0xE000ED00)
T49F4 6453:403.529   Data:  41 C2 0F 41
T49F4 6453:403.547   Debug reg: CPUID
T49F4 6453:403.559 - 0.554ms returns 1 (0x1)
T49F4 6453:403.572 JLINK_GetDebugInfo(0x10F = JLINKARM_DEBUG_INFO_HAS_CORTEX_M_SECURITY_EXT_INDEX)
T49F4 6453:403.582   Value=0x00000000
T49F4 6453:403.594 - 0.025ms returns 0
T49F4 6453:403.604 JLINK_HasError()
T49F4 6453:403.617 JLINK_SetResetType(JLINKARM_CM3_RESET_TYPE_NORMAL)
T49F4 6453:403.626 - 0.013ms returns JLINKARM_CM3_RESET_TYPE_NORMAL
T49F4 6453:403.638 JLINK_Reset()
T49F4 6453:403.650   CPU is running
T49F4 6453:403.664   CPU_WriteMem(4 bytes @ 0xE000EDF0)
T49F4 6453:404.201   CPU is running
T49F4 6453:404.219   CPU_WriteMem(4 bytes @ 0xE000EDFC)
T49F4 6453:404.757   Reset: Halt core after reset via DEMCR.VC_CORERESET.
T49F4 6453:405.380   Reset: Reset device via AIRCR.SYSRESETREQ.
T49F4 6453:405.401   CPU is running
T49F4 6453:405.415   CPU_WriteMem(4 bytes @ 0xE000ED0C)
T49F4 6453:459.882   CPU_ReadMem(4 bytes @ 0xE000EDF0)
T49F4 6453:460.525   CPU_ReadMem(4 bytes @ 0xE000EDF0)
T49F4 6453:464.548   CPU_WriteMem(4 bytes @ 0xE000EDFC)
T49F4 6453:471.056   CPU_ReadMem(4 bytes @ 0xE000EDF0)
T49F4 6453:475.084   CPU_WriteMem(4 bytes @ 0xE0002000)
T49F4 6453:475.735   CPU_ReadMem(4 bytes @ 0xE000EDFC)
T49F4 6453:476.449   CPU_ReadMem(4 bytes @ 0xE0001000)
T49F4 6453:477.078 - 73.450ms
T49F4 6453:477.109 JLINK_HasError()
T49F4 6453:477.125 JLINK_ReadReg(R15 (PC))
T49F4 6453:477.136 - 0.015ms returns 0x08000380
T49F4 6453:477.147 JLINK_ReadReg(XPSR)
T49F4 6453:477.155 - 0.012ms returns 0x01000000
T49F4 6453:477.168 JLINK_Halt()
T49F4 6453:477.177 - 0.012ms returns 0x00
T49F4 6453:477.187 JLINK_ReadMemU32(0xE000EDF0, 0x1 Items)
T49F4 6453:477.199   CPU_ReadMem(4 bytes @ 0xE000EDF0)
T49F4 6453:477.798   Data:  03 00 03 00
T49F4 6453:477.818   Debug reg: DHCSR
T49F4 6453:477.830 - 0.647ms returns 1 (0x1)
T49F4 6453:477.846 JLINK_WriteU32_64(0xE000EDF0, 0xA05F0003)
T49F4 6453:477.856   Debug reg: DHCSR
T49F4 6453:478.101   CPU_WriteMem(4 bytes @ 0xE000EDF0)
T49F4 6453:478.720 - 0.882ms returns 0 (0x00000000)
T49F4 6453:478.739 JLINK_WriteU32_64(0xE000EDFC, 0x01000000)
T49F4 6453:478.748   Debug reg: DEMCR
T49F4 6453:478.765   CPU_WriteMem(4 bytes @ 0xE000EDFC)
T49F4 6453:479.417 - 0.687ms returns 0 (0x00000000)
T49F4 6453:479.464 JLINK_GetHWStatus(...)
T49F4 6453:479.858 - 0.404ms returns 0
T49F4 6453:479.893 JLINK_GetNumBPUnits(Type = 0xFFFFFF00)
T49F4 6453:479.903 - 0.014ms returns 0x06
T49F4 6453:479.916 JLINK_GetNumBPUnits(Type = 0xF0)
T49F4 6453:479.925 - 0.012ms returns 0x2000
T49F4 6453:479.937 JLINK_GetNumWPUnits()
T49F4 6453:479.945 - 0.012ms returns 4
T49F4 6453:479.966 JLINK_GetSpeed()
T49F4 6453:479.975 - 0.012ms returns 4000
T49F4 6453:480.053 JLINK_ReadMemU32(0xE000E004, 0x1 Items)
T49F4 6453:480.075   CPU_ReadMem(4 bytes @ 0xE000E004)
T49F4 6453:480.657   Data:  02 00 00 00
T49F4 6453:480.674 - 0.625ms returns 1 (0x1)
T49F4 6453:480.686 JLINK_ReadMemU32(0xE000E004, 0x1 Items)
T49F4 6453:480.698   CPU_ReadMem(4 bytes @ 0xE000E004)
T49F4 6453:481.304   Data:  02 00 00 00
T49F4 6453:481.320 - 0.639ms returns 1 (0x1)
T49F4 6453:481.335 JLINK_WriteMemEx(0xE0001000, 0x0000001C Bytes, Flags = 0x02000004)
T49F4 6453:481.344   Data:  01 00 00 00 00 00 00 00 00 00 00 00 00 00 00 00 ...
T49F4 6453:481.360   CPU_WriteMem(28 bytes @ 0xE0001000)
T49F4 6453:482.228 - 0.902ms returns 0x1C
T49F4 6453:482.246 JLINK_HasError()
T49F4 6453:482.257 JLINK_ReadReg(R15 (PC))
T49F4 6453:482.267 - 0.014ms returns 0x08000380
T49F4 6453:482.278 JLINK_ReadReg(XPSR)
T49F4 6453:482.287 - 0.013ms returns 0x01000000
T49F4 6453:485.601 JLINK_ReadMemEx(0xE0001004, 0x4 Bytes, Flags = 0x02000000)
T49F4 6453:485.619   Data:  00 00 00 00
T49F4 6453:485.632   Debug reg: DWT_CYCCNT
T49F4 6453:485.643 - 0.047ms returns 4 (0x4)
T49F4 6453:606.586 JLINK_HasError()
T49F4 6453:606.652 JLINK_SetResetType(JLINKARM_CM3_RESET_TYPE_NORMAL)
T49F4 6453:606.669 - 0.023ms returns JLINKARM_CM3_RESET_TYPE_NORMAL
T49F4 6453:606.698 JLINK_Reset()
T49F4 6453:606.736   CPU_WriteMem(4 bytes @ 0xE000EDF0)
T49F4 6453:607.314   CPU_WriteMem(4 bytes @ 0xE000EDFC)
T49F4 6453:608.070   Reset: Halt core after reset via DEMCR.VC_CORERESET.
T49F4 6453:608.831   Reset: Reset device via AIRCR.SYSRESETREQ.
T49F4 6453:608.850   CPU_WriteMem(4 bytes @ 0xE000ED0C)
T49F4 6453:663.280   CPU_ReadMem(4 bytes @ 0xE000EDF0)
T49F4 6453:663.916   CPU_ReadMem(4 bytes @ 0xE000EDF0)
T49F4 6453:664.562   CPU_WriteMem(4 bytes @ 0xE000EDFC)
T49F4 6453:670.508   CPU_ReadMem(4 bytes @ 0xE000EDF0)
T49F4 6453:674.561   CPU_WriteMem(4 bytes @ 0xE0002000)
T49F4 6453:675.182   CPU_ReadMem(4 bytes @ 0xE000EDFC)
T49F4 6453:675.832   CPU_ReadMem(4 bytes @ 0xE0001000)
T49F4 6453:676.512 - 69.824ms
T49F4 6453:676.652 JLINK_HasError()
T49F4 6453:676.670 JLINK_ReadReg(R15 (PC))
T49F4 6453:676.684 - 0.020ms returns 0x08000380
T49F4 6453:676.697 JLINK_ReadReg(XPSR)
T49F4 6453:676.706 - 0.012ms returns 0x01000000
T49F4 6453:677.173 JLINK_ReadMemEx(0x08000380, 0x3C Bytes, Flags = 0x02000000)
T49F4 6453:677.191   CPU_ReadMem(64 bytes @ 0x08000380)
T49F4 6453:678.410    -- Updating C cache (64 bytes @ 0x08000380)
T49F4 6453:678.429    -- Read from C cache (60 bytes @ 0x08000380)
T49F4 6453:678.442   Data:  09 48 80 47 09 48 00 47 FE E7 FE E7 FE E7 FE E7 ...
T49F4 6453:678.454 - 1.286ms returns 60 (0x3C)
T49F4 6453:678.467 JLINK_ReadMemEx(0x08000380, 0x2 Bytes, Flags = 0x02000000)
T49F4 6453:678.477    -- Read from C cache (2 bytes @ 0x08000380)
T49F4 6453:678.489   Data:  09 48
T49F4 6453:678.501 - 0.037ms returns 2 (0x2)
T49F4 6453:678.565 JLINK_ReadMemEx(0x08000382, 0x2 Bytes, Flags = 0x02000000)
T49F4 6453:678.576    -- Read from C cache (2 bytes @ 0x08000382)
T49F4 6453:678.588   Data:  80 47
T49F4 6453:678.599 - 0.038ms returns 2 (0x2)
T49F4 6453:678.616 JLINK_ReadMemEx(0x08000382, 0x2 Bytes, Flags = 0x02000000)
T49F4 6453:678.626    -- Read from C cache (2 bytes @ 0x08000382)
T49F4 6453:678.637   Data:  80 47
T49F4 6453:678.649 - 0.036ms returns 2 (0x2)
T49F4 6453:678.658 JLINK_ReadMemEx(0x08000384, 0x3C Bytes, Flags = 0x02000000)
T49F4 6453:678.667    -- Read from C cache (60 bytes @ 0x08000384)
T49F4 6453:678.679   Data:  09 48 00 47 FE E7 FE E7 FE E7 FE E7 FE E7 FE E7 ...
T49F4 6453:678.691 - 0.036ms returns 60 (0x3C)
T49F4 6453:678.700 JLINK_ReadMemEx(0x08000384, 0x2 Bytes, Flags = 0x02000000)
T49F4 6453:678.709    -- Read from C cache (2 bytes @ 0x08000384)
T49F4 6453:678.720   Data:  09 48
T49F4 6453:678.732 - 0.035ms returns 2 (0x2)
T68A0 6455:714.341 JLINK_ReadMemEx(0x08000380, 0x2 Bytes, Flags = 0x02000000)
T68A0 6455:714.368    -- Read from C cache (2 bytes @ 0x08000380)
T68A0 6455:714.382   Data:  09 48
T68A0 6455:714.395 - 0.058ms returns 2 (0x2)
T68A0 6455:714.407 JLINK_HasError()
T68A0 6455:714.423 JLINK_SetBPEx(Addr = 0x080062AA, Type = 0xFFFFFFF2)
T68A0 6455:714.435 - 0.016ms returns 0x00000001
T68A0 6455:714.446 JLINK_HasError()
T68A0 6455:714.456 JLINK_HasError()
T68A0 6455:714.468 JLINK_Go()
T68A0 6455:715.021   CPU_WriteMem(4 bytes @ 0xE0002000)
T68A0 6455:715.631   CPU_ReadMem(4 bytes @ 0xE0001000)
T68A0 6455:716.147   CPU_WriteMem(4 bytes @ 0xE0002008)
T68A0 6455:716.167   CPU_WriteMem(4 bytes @ 0xE000200C)
T68A0 6455:716.180   CPU_WriteMem(4 bytes @ 0xE0002010)
T68A0 6455:716.194   CPU_WriteMem(4 bytes @ 0xE0002014)
T68A0 6455:716.206   CPU_WriteMem(4 bytes @ 0xE0002018)
T68A0 6455:716.219   CPU_WriteMem(4 bytes @ 0xE000201C)
T68A0 6455:718.450   CPU_WriteMem(4 bytes @ 0xE0001004)
T68A0 6455:719.587 - 5.128ms
T68A0 6455:819.763 JLINK_HasError()
T68A0 6455:819.792 JLINK_IsHalted()
T68A0 6455:823.094 - 3.314ms returns TRUE
T68A0 6455:823.116 JLINK_HasError()
T68A0 6455:823.128 JLINK_Halt()
T68A0 6455:823.137 - 0.013ms returns 0x00
T68A0 6455:823.147 JLINK_IsHalted()
T68A0 6455:823.156 - 0.012ms returns TRUE
T68A0 6455:823.166 JLINK_IsHalted()
T68A0 6455:823.174 - 0.012ms returns TRUE
T68A0 6455:823.184 JLINK_IsHalted()
T68A0 6455:823.193 - 0.013ms returns TRUE
T68A0 6455:823.203 JLINK_HasError()
T68A0 6455:823.214 JLINK_ReadReg(R15 (PC))
T68A0 6455:823.224 - 0.015ms returns 0x08000BF4
T68A0 6455:823.235 JLINK_ReadReg(XPSR)
T68A0 6455:823.243 - 0.012ms returns 0x01000000
T68A0 6455:823.257 JLINK_HasError()
T68A0 6455:823.270 JLINK_ClrBPEx(BPHandle = 0x00000001)
T68A0 6455:823.279 - 0.013ms returns 0x00
T68A0 6455:823.289 JLINK_HasError()
T68A0 6455:823.299 JLINK_HasError()
T68A0 6455:823.309 JLINK_ReadMemU32(0xE000ED30, 0x1 Items)
T68A0 6455:823.323   CPU_ReadMem(4 bytes @ 0xE000ED30)
T68A0 6455:823.869   Data:  03 00 00 00
T68A0 6455:823.887 - 0.582ms returns 1 (0x1)
T68A0 6455:823.899 JLINK_ReadMemU32(0xE0001028, 0x1 Items)
T68A0 6455:823.912   CPU_ReadMem(4 bytes @ 0xE0001028)
T68A0 6455:824.420   Data:  00 00 00 00
T68A0 6455:824.438   Debug reg: DWT_FUNC[0]
T68A0 6455:824.450 - 0.596ms returns 1 (0x1)
T68A0 6455:824.507 JLINK_ReadMemU32(0xE0001038, 0x1 Items)
T68A0 6455:824.519   CPU_ReadMem(4 bytes @ 0xE0001038)
T68A0 6455:825.017   Data:  00 02 00 00
T68A0 6455:825.034   Debug reg: DWT_FUNC[1]
T68A0 6455:825.046 - 0.543ms returns 1 (0x1)
T68A0 6455:825.058 JLINK_ReadMemU32(0xE0001048, 0x1 Items)
T68A0 6455:825.069   CPU_ReadMem(4 bytes @ 0xE0001048)
T68A0 6455:825.568   Data:  00 00 00 00
T68A0 6455:825.585   Debug reg: DWT_FUNC[2]
T68A0 6455:825.597 - 0.543ms returns 1 (0x1)
T68A0 6455:825.609 JLINK_ReadMemU32(0xE0001058, 0x1 Items)
T68A0 6455:825.620   CPU_ReadMem(4 bytes @ 0xE0001058)
T68A0 6455:826.116   Data:  00 00 00 00
T68A0 6455:826.133   Debug reg: DWT_FUNC[3]
T68A0 6455:826.145 - 0.541ms returns 1 (0x1)
T68A0 6455:826.197 JLINK_HasError()
T68A0 6455:826.209 JLINK_ReadReg(R0)
T68A0 6455:826.218 - 0.013ms returns 0x00000001
T68A0 6455:826.229 JLINK_ReadReg(R1)
T68A0 6455:826.237 - 0.012ms returns 0x2000D528
T68A0 6455:826.247 JLINK_ReadReg(R2)
T68A0 6455:826.256 - 0.012ms returns 0x00000000
T68A0 6455:826.266 JLINK_ReadReg(R3)
T68A0 6455:826.274 - 0.013ms returns 0x0800F729
T68A0 6455:826.285 JLINK_ReadReg(R4)
T68A0 6455:826.293 - 0.012ms returns 0x00000000
T68A0 6455:826.303 JLINK_ReadReg(R5)
T68A0 6455:826.312 - 0.012ms returns 0x00000001
T68A0 6455:826.322 JLINK_ReadReg(R6)
T68A0 6455:826.331 - 0.013ms returns 0x2000CE14
T68A0 6455:826.341 JLINK_ReadReg(R7)
T68A0 6455:826.349 - 0.012ms returns 0x0800F728
T68A0 6455:826.360 JLINK_ReadReg(R8)
T68A0 6455:826.368 - 0.012ms returns 0x00000000
T68A0 6455:826.378 JLINK_ReadReg(R9)
T68A0 6455:826.386 - 0.012ms returns 0x00000000
T68A0 6455:826.396 JLINK_ReadReg(R10)
T68A0 6455:826.405 - 0.012ms returns 0x0800F890
T68A0 6455:826.415 JLINK_ReadReg(R11)
T68A0 6455:826.423 - 0.012ms returns 0x00000000
T68A0 6455:826.433 JLINK_ReadReg(R12)
T68A0 6455:826.443 - 0.013ms returns 0x00000000
T68A0 6455:826.453 JLINK_ReadReg(R13 (SP))
T68A0 6455:826.461 - 0.012ms returns 0x2000D528
T68A0 6455:826.471 JLINK_ReadReg(R14)
T68A0 6455:826.480 - 0.012ms returns 0x08000BEF
T68A0 6455:826.490 JLINK_ReadReg(R15 (PC))
T68A0 6455:826.498 - 0.012ms returns 0x08000BF4
T68A0 6455:826.508 JLINK_ReadReg(XPSR)
T68A0 6455:826.517 - 0.013ms returns 0x01000000
T68A0 6455:826.527 JLINK_ReadReg(MSP)
T68A0 6455:826.536 - 0.012ms returns 0x2000D528
T68A0 6455:826.546 JLINK_ReadReg(PSP)
T68A0 6455:826.554 - 0.012ms returns 0x00000000
T68A0 6455:826.564 JLINK_ReadReg(CFBP)
T68A0 6455:826.573 - 0.012ms returns 0x04000000
T68A0 6455:826.583 JLINK_ReadReg(FPSCR)
T68A0 6455:831.281 - 4.711ms returns 0x03000000
T68A0 6455:831.306 JLINK_ReadReg(FPS0)
T68A0 6455:831.317 - 0.015ms returns 0x00000000
T68A0 6455:831.329 JLINK_ReadReg(FPS1)
T68A0 6455:831.338 - 0.013ms returns 0x00000000
T68A0 6455:831.350 JLINK_ReadReg(FPS2)
T68A0 6455:831.358 - 0.012ms returns 0x00000000
T68A0 6455:831.370 JLINK_ReadReg(FPS3)
T68A0 6455:831.378 - 0.013ms returns 0x00000000
T68A0 6455:831.390 JLINK_ReadReg(FPS4)
T68A0 6455:831.399 - 0.012ms returns 0x00000000
T68A0 6455:831.410 JLINK_ReadReg(FPS5)
T68A0 6455:831.419 - 0.012ms returns 0x00000000
T68A0 6455:831.430 JLINK_ReadReg(FPS6)
T68A0 6455:831.439 - 0.012ms returns 0x00000000
T68A0 6455:831.450 JLINK_ReadReg(FPS7)
T68A0 6455:831.459 - 0.012ms returns 0x00000000
T68A0 6455:831.471 JLINK_ReadReg(FPS8)
T68A0 6455:831.479 - 0.012ms returns 0x00000000
T68A0 6455:831.490 JLINK_ReadReg(FPS9)
T68A0 6455:831.499 - 0.012ms returns 0x00000000
T68A0 6455:831.511 JLINK_ReadReg(FPS10)
T68A0 6455:831.519 - 0.012ms returns 0x00000000
T68A0 6455:831.529 JLINK_ReadReg(FPS11)
T68A0 6455:831.537 - 0.012ms returns 0x00000000
T68A0 6455:831.548 JLINK_ReadReg(FPS12)
T68A0 6455:831.556 - 0.012ms returns 0x00000000
T68A0 6455:831.567 JLINK_ReadReg(FPS13)
T68A0 6455:831.576 - 0.012ms returns 0x00000000
T68A0 6455:831.588 JLINK_ReadReg(FPS14)
T68A0 6455:831.596 - 0.012ms returns 0x00000000
T68A0 6455:831.608 JLINK_ReadReg(FPS15)
T68A0 6455:831.617 - 0.013ms returns 0x00000000
T68A0 6455:831.627 JLINK_ReadReg(FPS16)
T68A0 6455:831.643 - 0.024ms returns 0x00000000
T68A0 6455:831.667 JLINK_ReadReg(FPS17)
T68A0 6455:831.681 - 0.019ms returns 0x00000000
T68A0 6455:831.696 JLINK_ReadReg(FPS18)
T68A0 6455:831.707 - 0.017ms returns 0x00000000
T68A0 6455:831.722 JLINK_ReadReg(FPS19)
T68A0 6455:831.734 - 0.017ms returns 0x00000000
T68A0 6455:831.747 JLINK_ReadReg(FPS20)
T68A0 6455:831.759 - 0.017ms returns 0x00000000
T68A0 6455:831.774 JLINK_ReadReg(FPS21)
T68A0 6455:831.785 - 0.017ms returns 0x00000000
T68A0 6455:831.799 JLINK_ReadReg(FPS22)
T68A0 6455:831.810 - 0.017ms returns 0x00000000
T68A0 6455:831.827 JLINK_ReadReg(FPS23)
T68A0 6455:831.839 - 0.018ms returns 0x00000000
T68A0 6455:831.854 JLINK_ReadReg(FPS24)
T68A0 6455:831.870 - 0.022ms returns 0x00000000
T68A0 6455:831.883 JLINK_ReadReg(FPS25)
T68A0 6455:831.892 - 0.016ms returns 0x00000000
T68A0 6455:831.977 JLINK_ReadReg(FPS26)
T68A0 6455:831.994 - 0.021ms returns 0x00000000
T68A0 6455:832.005 JLINK_ReadReg(FPS27)
T68A0 6455:832.014 - 0.013ms returns 0x00000000
T68A0 6455:832.024 JLINK_ReadReg(FPS28)
T68A0 6455:832.033 - 0.012ms returns 0x00000000
T68A0 6455:832.043 JLINK_ReadReg(FPS29)
T68A0 6455:832.052 - 0.012ms returns 0x00000000
T68A0 6455:832.062 JLINK_ReadReg(FPS30)
T68A0 6455:832.070 - 0.012ms returns 0x00000000
T68A0 6455:832.080 JLINK_ReadReg(FPS31)
T68A0 6455:832.089 - 0.012ms returns 0x00000000
T49F4 6455:832.373 JLINK_ReadMemEx(0x2000D534, 0x4 Bytes, Flags = 0x02000000)
T49F4 6455:832.397   CPU_ReadMem(64 bytes @ 0x2000D500)
T49F4 6455:833.564    -- Updating C cache (64 bytes @ 0x2000D500)
T49F4 6455:833.584    -- Read from C cache (4 bytes @ 0x2000D534)
T49F4 6455:833.597   Data:  7B 0D 00 08
T49F4 6455:833.609 - 1.240ms returns 4 (0x4)
T49F4 6455:833.680 JLINK_ReadMemEx(0x2000D534, 0x4 Bytes, Flags = 0x02000000)
T49F4 6455:833.692    -- Read from C cache (4 bytes @ 0x2000D534)
T49F4 6455:833.706   Data:  7B 0D 00 08
T49F4 6455:833.718 - 0.041ms returns 4 (0x4)
T49F4 6455:833.730 JLINK_ReadMemEx(0x2000D54C, 0x4 Bytes, Flags = 0x02000000)
T49F4 6455:833.741   CPU_ReadMem(64 bytes @ 0x2000D540)
T49F4 6455:835.086    -- Updating C cache (64 bytes @ 0x2000D540)
T49F4 6455:835.106    -- Read from C cache (4 bytes @ 0x2000D54C)
T49F4 6455:835.119   Data:  F1 0A 00 08
T49F4 6455:835.131 - 1.405ms returns 4 (0x4)
T49F4 6455:835.146 JLINK_ReadMemEx(0x2000D538, 0x4 Bytes, Flags = 0x02000000)
T49F4 6455:835.157    -- Read from C cache (4 bytes @ 0x2000D538)
T49F4 6455:835.169   Data:  00 00 00 00
T49F4 6455:835.183 - 0.041ms returns 4 (0x4)
T49F4 6455:835.193 JLINK_ReadMemEx(0x2000D53C, 0x4 Bytes, Flags = 0x02000000)
T49F4 6455:835.203    -- Read from C cache (4 bytes @ 0x2000D53C)
T49F4 6455:835.215   Data:  10 CF 00 20
T49F4 6455:835.228 - 0.038ms returns 4 (0x4)
T49F4 6455:835.238 JLINK_ReadMemEx(0x2000D540, 0x4 Bytes, Flags = 0x02000000)
T49F4 6455:835.247    -- Read from C cache (4 bytes @ 0x2000D540)
T49F4 6455:835.259   Data:  00 00 00 00
T49F4 6455:835.271 - 0.037ms returns 4 (0x4)
T49F4 6455:835.281 JLINK_ReadMemEx(0x2000D544, 0x4 Bytes, Flags = 0x02000000)
T49F4 6455:835.291    -- Read from C cache (4 bytes @ 0x2000D544)
T49F4 6455:835.303   Data:  00 00 00 00
T49F4 6455:835.315 - 0.037ms returns 4 (0x4)
T49F4 6455:835.325 JLINK_ReadMemEx(0x2000D548, 0x4 Bytes, Flags = 0x02000000)
T49F4 6455:835.334    -- Read from C cache (4 bytes @ 0x2000D548)
T49F4 6455:835.346   Data:  00 00 00 00
T49F4 6455:835.358 - 0.037ms returns 4 (0x4)
T49F4 6455:835.368 JLINK_ReadMemEx(0x2000D54C, 0x4 Bytes, Flags = 0x02000000)
T49F4 6455:835.377    -- Read from C cache (4 bytes @ 0x2000D54C)
T49F4 6455:835.389   Data:  F1 0A 00 08
T49F4 6455:835.402 - 0.037ms returns 4 (0x4)
T49F4 6455:835.413 JLINK_ReadMemEx(0x2000D554, 0x4 Bytes, Flags = 0x02000000)
T49F4 6455:835.422    -- Read from C cache (4 bytes @ 0x2000D554)
T49F4 6455:835.434   Data:  63 02 00 08
T49F4 6455:835.446 - 0.037ms returns 4 (0x4)
T49F4 6455:835.460 JLINK_ReadMemEx(0x2000D550, 0x4 Bytes, Flags = 0x02000000)
T49F4 6455:835.470    -- Read from C cache (4 bytes @ 0x2000D550)
T49F4 6455:835.487   Data:  00 00 00 00
T49F4 6455:835.499 - 0.043ms returns 4 (0x4)
T49F4 6455:835.509 JLINK_ReadMemEx(0x2000D554, 0x4 Bytes, Flags = 0x02000000)
T49F4 6455:835.519    -- Read from C cache (4 bytes @ 0x2000D554)
T49F4 6455:835.531   Data:  63 02 00 08
T49F4 6455:835.542 - 0.037ms returns 4 (0x4)
T49F4 6455:841.042 JLINK_HasError()
T49F4 6455:841.067 JLINK_ReadMemU32(0xE0001004, 0x1 Items)
T49F4 6455:841.085   CPU_ReadMem(4 bytes @ 0xE0001004)
T49F4 6455:841.638   Data:  DD 7A 00 00
T49F4 6455:841.657   Debug reg: DWT_CYCCNT
T49F4 6455:841.671 - 0.607ms returns 1 (0x1)
T49F4 6455:844.202 JLINK_ReadMemEx(0x08000BF4, 0x3C Bytes, Flags = 0x02000000)
T49F4 6455:844.225   CPU_ReadMem(128 bytes @ 0x08000BC0)
T49F4 6455:846.052    -- Updating C cache (128 bytes @ 0x08000BC0)
T49F4 6455:846.070    -- Read from C cache (60 bytes @ 0x08000BF4)
T49F4 6455:846.084   Data:  AB BE 0E BD 08 B5 69 46 00 90 02 20 AB BE 08 BD ...
T49F4 6455:846.096 - 1.897ms returns 60 (0x3C)
T49F4 6455:846.108 JLINK_ReadMemEx(0x08000BF4, 0x2 Bytes, Flags = 0x02000000)
T49F4 6455:846.118    -- Read from C cache (2 bytes @ 0x08000BF4)
T49F4 6455:846.130   Data:  AB BE
T49F4 6455:846.142 - 0.038ms returns 2 (0x2)
T49F4 6455:846.153 JLINK_ReadMemEx(0x08000BF6, 0x2 Bytes, Flags = 0x02000000)
T49F4 6455:846.162    -- Read from C cache (2 bytes @ 0x08000BF6)
T49F4 6455:846.175   Data:  0E BD
T49F4 6455:846.187 - 0.037ms returns 2 (0x2)
T49F4 6455:846.204 JLINK_ReadMemEx(0x08000BF6, 0x2 Bytes, Flags = 0x02000000)
T49F4 6455:846.214    -- Read from C cache (2 bytes @ 0x08000BF6)
T49F4 6455:846.226   Data:  0E BD
T49F4 6455:846.238 - 0.038ms returns 2 (0x2)
T49F4 6455:846.248 JLINK_ReadMemEx(0x08000BF8, 0x3C Bytes, Flags = 0x02000000)
T49F4 6455:846.257    -- Read from C cache (60 bytes @ 0x08000BF8)
T49F4 6455:846.270   Data:  08 B5 69 46 00 90 02 20 AB BE 08 BD 1F B5 8D E8 ...
T49F4 6455:846.281 - 0.038ms returns 60 (0x3C)
T49F4 6455:846.292 JLINK_ReadMemEx(0x08000BF8, 0x2 Bytes, Flags = 0x02000000)
T49F4 6455:846.301    -- Read from C cache (2 bytes @ 0x08000BF8)
T49F4 6455:846.313   Data:  08 B5
T49F4 6455:846.326 - 0.039ms returns 2 (0x2)
T49F4 6455:846.339 JLINK_ReadMemEx(0x08000BF8, 0x3C Bytes, Flags = 0x02000000)
T49F4 6455:846.349    -- Read from C cache (60 bytes @ 0x08000BF8)
T49F4 6455:846.361   Data:  08 B5 69 46 00 90 02 20 AB BE 08 BD 1F B5 8D E8 ...
T49F4 6455:846.373 - 0.038ms returns 60 (0x3C)
T49F4 6455:846.384 JLINK_ReadMemEx(0x08000BF8, 0x2 Bytes, Flags = 0x02000000)
T49F4 6455:846.393    -- Read from C cache (2 bytes @ 0x08000BF8)
T49F4 6455:846.405   Data:  08 B5
T49F4 6455:846.417 - 0.037ms returns 2 (0x2)
T49F4 6455:846.427 JLINK_ReadMemEx(0x08000BFA, 0x2 Bytes, Flags = 0x02000000)
T49F4 6455:846.436    -- Read from C cache (2 bytes @ 0x08000BFA)
T49F4 6455:846.448   Data:  69 46
T49F4 6455:846.460 - 0.037ms returns 2 (0x2)
T49F4 6455:846.472 JLINK_ReadMemEx(0x08000BFA, 0x2 Bytes, Flags = 0x02000000)
T49F4 6455:846.482    -- Read from C cache (2 bytes @ 0x08000BFA)
T49F4 6455:846.494   Data:  69 46
T49F4 6455:846.506 - 0.037ms returns 2 (0x2)
T49F4 6455:846.516 JLINK_ReadMemEx(0x08000BFC, 0x3C Bytes, Flags = 0x02000000)
T49F4 6455:846.525    -- Read from C cache (60 bytes @ 0x08000BFC)
T49F4 6455:846.537   Data:  00 90 02 20 AB BE 08 BD 1F B5 8D E8 07 00 69 46 ...
T49F4 6455:846.549 - 0.037ms returns 60 (0x3C)
T49F4 6455:846.559 JLINK_ReadMemEx(0x08000BFC, 0x2 Bytes, Flags = 0x02000000)
T49F4 6455:846.568    -- Read from C cache (2 bytes @ 0x08000BFC)
T49F4 6455:846.580   Data:  00 90
T49F4 6455:846.592 - 0.036ms returns 2 (0x2)
T49F4 6455:846.604 JLINK_ReadMemEx(0x08000BFC, 0x3C Bytes, Flags = 0x02000000)
T49F4 6455:846.613    -- Read from C cache (60 bytes @ 0x08000BFC)
T49F4 6455:846.625   Data:  00 90 02 20 AB BE 08 BD 1F B5 8D E8 07 00 69 46 ...
T49F4 6455:846.638 - 0.038ms returns 60 (0x3C)
T49F4 6455:846.648 JLINK_ReadMemEx(0x08000BFC, 0x2 Bytes, Flags = 0x02000000)
T49F4 6455:846.658    -- Read from C cache (2 bytes @ 0x08000BFC)
T49F4 6455:846.675   Data:  00 90
T49F4 6455:846.687 - 0.043ms returns 2 (0x2)
T49F4 6455:846.697 JLINK_ReadMemEx(0x08000BFE, 0x2 Bytes, Flags = 0x02000000)
T49F4 6455:846.706    -- Read from C cache (2 bytes @ 0x08000BFE)
T49F4 6455:846.718   Data:  02 20
T49F4 6455:846.730 - 0.037ms returns 2 (0x2)
T68A0 6457:830.941 JLINK_ReadMemEx(0x08000BF4, 0x2 Bytes, Flags = 0x02000000)
T68A0 6457:830.975    -- Read from C cache (2 bytes @ 0x08000BF4)
T68A0 6457:830.995   Data:  AB BE
T68A0 6457:831.014 - 0.078ms returns 2 (0x2)
T68A0 6457:831.031 JLINK_HasError()
T68A0 6457:831.055 JLINK_WriteReg(R15 (PC), 0x08000BF6)
T68A0 6457:831.071 - 0.022ms returns 0
T68A0 6457:831.087 JLINK_HasError()
T68A0 6457:831.101 JLINK_HasError()
T68A0 6457:831.118 JLINK_Go()
T68A0 6457:831.688   CPU_ReadMem(4 bytes @ 0xE0001000)
T68A0 6457:832.275   CPU_WriteMem(4 bytes @ 0xE0002008)
T68A0 6457:834.064 - 2.969ms
T68A0 6457:935.083 JLINK_HasError()
T68A0 6457:935.133 JLINK_IsHalted()
T68A0 6457:938.438 - 3.317ms returns TRUE
T68A0 6457:938.459 JLINK_HasError()
T68A0 6457:938.470 JLINK_Halt()
T68A0 6457:938.479 - 0.012ms returns 0x00
T68A0 6457:938.489 JLINK_IsHalted()
T68A0 6457:938.497 - 0.012ms returns TRUE
T68A0 6457:938.507 JLINK_IsHalted()
T68A0 6457:938.515 - 0.012ms returns TRUE
T68A0 6457:938.524 JLINK_IsHalted()
T68A0 6457:938.532 - 0.012ms returns TRUE
T68A0 6457:938.542 JLINK_HasError()
T68A0 6457:938.552 JLINK_ReadReg(R15 (PC))
T68A0 6457:938.562 - 0.014ms returns 0x08000BF4
T68A0 6457:938.573 JLINK_ReadReg(XPSR)
T68A0 6457:938.581 - 0.012ms returns 0x01000000
T68A0 6457:938.593 JLINK_HasError()
T68A0 6457:938.605 JLINK_HasError()
T68A0 6457:938.614 JLINK_ReadMemU32(0xE000ED30, 0x1 Items)
T68A0 6457:938.628   CPU_ReadMem(4 bytes @ 0xE000ED30)
T68A0 6457:939.147   Data:  03 00 00 00
T68A0 6457:939.163 - 0.553ms returns 1 (0x1)
T68A0 6457:939.175 JLINK_ReadMemU32(0xE0001028, 0x1 Items)
T68A0 6457:939.186   CPU_ReadMem(4 bytes @ 0xE0001028)
T68A0 6457:939.707   Data:  00 00 00 00
T68A0 6457:939.724   Debug reg: DWT_FUNC[0]
T68A0 6457:939.736 - 0.564ms returns 1 (0x1)
T68A0 6457:939.747 JLINK_ReadMemU32(0xE0001038, 0x1 Items)
T68A0 6457:939.758   CPU_ReadMem(4 bytes @ 0xE0001038)
T68A0 6457:940.320   Data:  00 02 00 00
T68A0 6457:940.336   Debug reg: DWT_FUNC[1]
T68A0 6457:940.348 - 0.605ms returns 1 (0x1)
T68A0 6457:940.359 JLINK_ReadMemU32(0xE0001048, 0x1 Items)
T68A0 6457:940.370   CPU_ReadMem(4 bytes @ 0xE0001048)
T68A0 6457:940.908   Data:  00 00 00 00
T68A0 6457:940.925   Debug reg: DWT_FUNC[2]
T68A0 6457:940.937 - 0.581ms returns 1 (0x1)
T68A0 6457:940.948 JLINK_ReadMemU32(0xE0001058, 0x1 Items)
T68A0 6457:940.959   CPU_ReadMem(4 bytes @ 0xE0001058)
T68A0 6457:941.489   Data:  00 00 00 00
T68A0 6457:941.506   Debug reg: DWT_FUNC[3]
T68A0 6457:941.517 - 0.573ms returns 1 (0x1)
T68A0 6457:941.571 JLINK_HasError()
T68A0 6457:941.582 JLINK_ReadReg(R0)
T68A0 6457:941.592 - 0.013ms returns 0x00000001
T68A0 6457:941.602 JLINK_ReadReg(R1)
T68A0 6457:941.610 - 0.012ms returns 0x2000D528
T68A0 6457:941.620 JLINK_ReadReg(R2)
T68A0 6457:941.628 - 0.012ms returns 0x00000000
T68A0 6457:941.637 JLINK_ReadReg(R3)
T68A0 6457:941.645 - 0.012ms returns 0x0800F72D
T68A0 6457:941.655 JLINK_ReadReg(R4)
T68A0 6457:941.663 - 0.011ms returns 0x00000004
T68A0 6457:941.673 JLINK_ReadReg(R5)
T68A0 6457:941.680 - 0.012ms returns 0x00000002
T68A0 6457:941.690 JLINK_ReadReg(R6)
T68A0 6457:941.698 - 0.012ms returns 0x2000CE68
T68A0 6457:941.708 JLINK_ReadReg(R7)
T68A0 6457:941.716 - 0.012ms returns 0x0800F72C
T68A0 6457:941.726 JLINK_ReadReg(R8)
T68A0 6457:941.734 - 0.012ms returns 0x00000000
T68A0 6457:941.744 JLINK_ReadReg(R9)
T68A0 6457:941.752 - 0.012ms returns 0x00000000
T68A0 6457:941.762 JLINK_ReadReg(R10)
T68A0 6457:941.770 - 0.011ms returns 0x0800F890
T68A0 6457:941.779 JLINK_ReadReg(R11)
T68A0 6457:941.787 - 0.012ms returns 0x00000000
T68A0 6457:941.797 JLINK_ReadReg(R12)
T68A0 6457:941.805 - 0.012ms returns 0x00000000
T68A0 6457:941.815 JLINK_ReadReg(R13 (SP))
T68A0 6457:941.906 - 0.095ms returns 0x2000D528
T68A0 6457:941.916 JLINK_ReadReg(R14)
T68A0 6457:941.925 - 0.012ms returns 0x08000BEF
T68A0 6457:941.934 JLINK_ReadReg(R15 (PC))
T68A0 6457:941.942 - 0.012ms returns 0x08000BF4
T68A0 6457:941.952 JLINK_ReadReg(XPSR)
T68A0 6457:941.960 - 0.012ms returns 0x01000000
T68A0 6457:941.970 JLINK_ReadReg(MSP)
T68A0 6457:941.978 - 0.011ms returns 0x2000D528
T68A0 6457:941.987 JLINK_ReadReg(PSP)
T68A0 6457:941.995 - 0.012ms returns 0x00000000
T68A0 6457:942.005 JLINK_ReadReg(CFBP)
T68A0 6457:942.021 - 0.020ms returns 0x04000000
T68A0 6457:942.031 JLINK_ReadReg(FPSCR)
T68A0 6457:947.200 - 5.180ms returns 0x03000000
T68A0 6457:947.221 JLINK_ReadReg(FPS0)
T68A0 6457:947.231 - 0.015ms returns 0x00000000
T68A0 6457:947.248 JLINK_ReadReg(FPS1)
T68A0 6457:947.256 - 0.012ms returns 0x00000000
T68A0 6457:947.266 JLINK_ReadReg(FPS2)
T68A0 6457:947.275 - 0.013ms returns 0x00000000
T68A0 6457:947.285 JLINK_ReadReg(FPS3)
T68A0 6457:947.293 - 0.012ms returns 0x00000000
T68A0 6457:947.303 JLINK_ReadReg(FPS4)
T68A0 6457:947.311 - 0.012ms returns 0x00000000
T68A0 6457:947.321 JLINK_ReadReg(FPS5)
T68A0 6457:947.329 - 0.011ms returns 0x00000000
T68A0 6457:947.338 JLINK_ReadReg(FPS6)
T68A0 6457:947.346 - 0.012ms returns 0x00000000
T68A0 6457:947.356 JLINK_ReadReg(FPS7)
T68A0 6457:947.364 - 0.012ms returns 0x00000000
T68A0 6457:947.374 JLINK_ReadReg(FPS8)
T68A0 6457:947.381 - 0.012ms returns 0x00000000
T68A0 6457:947.391 JLINK_ReadReg(FPS9)
T68A0 6457:947.399 - 0.011ms returns 0x00000000
T68A0 6457:947.408 JLINK_ReadReg(FPS10)
T68A0 6457:947.416 - 0.012ms returns 0x00000000
T68A0 6457:947.426 JLINK_ReadReg(FPS11)
T68A0 6457:947.434 - 0.012ms returns 0x00000000
T68A0 6457:947.444 JLINK_ReadReg(FPS12)
T68A0 6457:947.452 - 0.012ms returns 0x00000000
T68A0 6457:947.462 JLINK_ReadReg(FPS13)
T68A0 6457:947.470 - 0.012ms returns 0x00000000
T68A0 6457:947.480 JLINK_ReadReg(FPS14)
T68A0 6457:947.488 - 0.012ms returns 0x00000000
T68A0 6457:947.497 JLINK_ReadReg(FPS15)
T68A0 6457:947.506 - 0.012ms returns 0x00000000
T68A0 6457:947.515 JLINK_ReadReg(FPS16)
T68A0 6457:947.523 - 0.012ms returns 0x00000000
T68A0 6457:947.533 JLINK_ReadReg(FPS17)
T68A0 6457:947.541 - 0.012ms returns 0x00000000
T68A0 6457:947.551 JLINK_ReadReg(FPS18)
T68A0 6457:947.559 - 0.012ms returns 0x00000000
T68A0 6457:947.569 JLINK_ReadReg(FPS19)
T68A0 6457:947.577 - 0.012ms returns 0x00000000
T68A0 6457:947.587 JLINK_ReadReg(FPS20)
T68A0 6457:947.595 - 0.016ms returns 0x00000000
T68A0 6457:947.609 JLINK_ReadReg(FPS21)
T68A0 6457:947.617 - 0.012ms returns 0x00000000
T68A0 6457:947.627 JLINK_ReadReg(FPS22)
T68A0 6457:947.635 - 0.012ms returns 0x00000000
T68A0 6457:947.645 JLINK_ReadReg(FPS23)
T68A0 6457:947.653 - 0.012ms returns 0x00000000
T68A0 6457:947.663 JLINK_ReadReg(FPS24)
T68A0 6457:947.671 - 0.012ms returns 0x00000000
T68A0 6457:947.681 JLINK_ReadReg(FPS25)
T68A0 6457:947.689 - 0.012ms returns 0x00000000
T68A0 6457:947.698 JLINK_ReadReg(FPS26)
T68A0 6457:947.707 - 0.012ms returns 0x00000000
T68A0 6457:947.716 JLINK_ReadReg(FPS27)
T68A0 6457:947.725 - 0.012ms returns 0x00000000
T68A0 6457:947.734 JLINK_ReadReg(FPS28)
T68A0 6457:947.742 - 0.012ms returns 0x00000000
T68A0 6457:947.752 JLINK_ReadReg(FPS29)
T68A0 6457:947.760 - 0.012ms returns 0x00000000
T68A0 6457:947.770 JLINK_ReadReg(FPS30)
T68A0 6457:947.778 - 0.012ms returns 0x00000000
T68A0 6457:947.788 JLINK_ReadReg(FPS31)
T68A0 6457:947.796 - 0.012ms returns 0x00000000
T49F4 6457:948.280 JLINK_ReadMemEx(0x2000D534, 0x4 Bytes, Flags = 0x02000000)
T49F4 6457:948.304   CPU_ReadMem(64 bytes @ 0x2000D500)
T49F4 6457:949.570    -- Updating C cache (64 bytes @ 0x2000D500)
T49F4 6457:949.590    -- Read from C cache (4 bytes @ 0x2000D534)
T49F4 6457:949.603   Data:  7B 0D 00 08
T49F4 6457:949.615 - 1.339ms returns 4 (0x4)
T49F4 6457:949.630 JLINK_ReadMemEx(0x2000D534, 0x4 Bytes, Flags = 0x02000000)
T49F4 6457:949.641    -- Read from C cache (4 bytes @ 0x2000D534)
T49F4 6457:949.653   Data:  7B 0D 00 08
T49F4 6457:949.669 - 0.043ms returns 4 (0x4)
T49F4 6457:949.681 JLINK_ReadMemEx(0x2000D54C, 0x4 Bytes, Flags = 0x02000000)
T49F4 6457:949.692   CPU_ReadMem(64 bytes @ 0x2000D540)
T49F4 6457:950.905    -- Updating C cache (64 bytes @ 0x2000D540)
T49F4 6457:950.924    -- Read from C cache (4 bytes @ 0x2000D54C)
T49F4 6457:950.937   Data:  09 0B 00 08
T49F4 6457:950.949 - 1.271ms returns 4 (0x4)
T49F4 6457:950.963 JLINK_ReadMemEx(0x2000D538, 0x4 Bytes, Flags = 0x02000000)
T49F4 6457:950.974    -- Read from C cache (4 bytes @ 0x2000D538)
T49F4 6457:950.986   Data:  00 00 00 00
T49F4 6457:950.998 - 0.039ms returns 4 (0x4)
T49F4 6457:951.008 JLINK_ReadMemEx(0x2000D53C, 0x4 Bytes, Flags = 0x02000000)
T49F4 6457:951.018    -- Read from C cache (4 bytes @ 0x2000D53C)
T49F4 6457:951.031   Data:  10 CF 00 20
T49F4 6457:951.043 - 0.038ms returns 4 (0x4)
T49F4 6457:951.053 JLINK_ReadMemEx(0x2000D540, 0x4 Bytes, Flags = 0x02000000)
T49F4 6457:951.062    -- Read from C cache (4 bytes @ 0x2000D540)
T49F4 6457:951.073   Data:  00 00 00 00
T49F4 6457:951.085 - 0.036ms returns 4 (0x4)
T49F4 6457:951.095 JLINK_ReadMemEx(0x2000D544, 0x4 Bytes, Flags = 0x02000000)
T49F4 6457:951.104    -- Read from C cache (4 bytes @ 0x2000D544)
T49F4 6457:951.116   Data:  00 00 00 00
T49F4 6457:951.127 - 0.036ms returns 4 (0x4)
T49F4 6457:951.137 JLINK_ReadMemEx(0x2000D548, 0x4 Bytes, Flags = 0x02000000)
T49F4 6457:951.146    -- Read from C cache (4 bytes @ 0x2000D548)
T49F4 6457:951.160   Data:  00 00 00 00
T49F4 6457:951.171 - 0.037ms returns 4 (0x4)
T49F4 6457:951.181 JLINK_ReadMemEx(0x2000D54C, 0x4 Bytes, Flags = 0x02000000)
T49F4 6457:951.190    -- Read from C cache (4 bytes @ 0x2000D54C)
T49F4 6457:951.202   Data:  09 0B 00 08
T49F4 6457:951.213 - 0.036ms returns 4 (0x4)
T49F4 6457:951.224 JLINK_ReadMemEx(0x2000D554, 0x4 Bytes, Flags = 0x02000000)
T49F4 6457:951.233    -- Read from C cache (4 bytes @ 0x2000D554)
T49F4 6457:951.245   Data:  63 02 00 08
T49F4 6457:951.256 - 0.036ms returns 4 (0x4)
T49F4 6457:951.270 JLINK_ReadMemEx(0x2000D550, 0x4 Bytes, Flags = 0x02000000)
T49F4 6457:951.279    -- Read from C cache (4 bytes @ 0x2000D550)
T49F4 6457:951.291   Data:  00 00 00 00
T49F4 6457:951.302 - 0.036ms returns 4 (0x4)
T49F4 6457:951.312 JLINK_ReadMemEx(0x2000D554, 0x4 Bytes, Flags = 0x02000000)
T49F4 6457:951.321    -- Read from C cache (4 bytes @ 0x2000D554)
T49F4 6457:951.333   Data:  63 02 00 08
T49F4 6457:951.344 - 0.036ms returns 4 (0x4)
T49F4 6457:951.363 JLINK_HasError()
T49F4 6457:951.374 JLINK_ReadMemU32(0xE0001004, 0x1 Items)
T49F4 6457:951.386   CPU_ReadMem(4 bytes @ 0xE0001004)
T49F4 6457:952.045   Data:  83 7B 00 00
T49F4 6457:952.065   Debug reg: DWT_CYCCNT
T49F4 6457:952.077 - 0.706ms returns 1 (0x1)
T49F4 6461:723.050 JLINK_ReadMemEx(0x080062C6, 0x2 Bytes, Flags = 0x02000000)
T49F4 6461:723.076   CPU_ReadMem(64 bytes @ 0x080062C0)
T49F4 6461:724.268    -- Updating C cache (64 bytes @ 0x080062C0)
T49F4 6461:724.289    -- Read from C cache (2 bytes @ 0x080062C6)
T49F4 6461:724.302   Data:  FD F7
T49F4 6461:724.315 - 1.269ms returns 2 (0x2)
T49F4 6461:724.328 JLINK_ReadMemEx(0x080062C8, 0x3C Bytes, Flags = 0x02000000)
T49F4 6461:724.340   CPU_ReadMem(64 bytes @ 0x08006300)
T49F4 6461:725.536    -- Updating C cache (64 bytes @ 0x08006300)
T49F4 6461:725.556    -- Read from C cache (60 bytes @ 0x080062C8)
T49F4 6461:725.569   Data:  F3 F9 01 F0 7A F8 FE E7 01 46 00 20 84 29 00 D0 ...
T49F4 6461:725.581 - 1.257ms returns 60 (0x3C)
T49F4 6461:725.594 JLINK_ReadMemEx(0x080062C8, 0x2 Bytes, Flags = 0x02000000)
T49F4 6461:725.604    -- Read from C cache (2 bytes @ 0x080062C8)
T49F4 6461:725.616   Data:  F3 F9
T49F4 6461:725.628 - 0.038ms returns 2 (0x2)
T6808 6462:929.820 Looking for J-Link GUI Server exe at: E:\swinstall\keil_mdk\install\ARM\Segger\JLinkGUIServer.exe
T6808 6462:929.951 Looking for J-Link GUI Server exe at: C:\Program Files (x86)\SEGGER\JLink\JLinkGUIServer.exe
T6808 6462:930.037 Forking J-Link GUI Server: C:\Program Files (x86)\SEGGER\JLink\JLinkGUIServer.exe
T6808 6462:962.538 J-Link GUI Server info: "J-Link GUI server V7.84 "
T49F4 6468:117.828 JLINK_ReadMemEx(0x080036B0, 0x3C Bytes, Flags = 0x02000000)
T49F4 6468:117.860   CPU_ReadMem(128 bytes @ 0x08003680)
T49F4 6468:119.654    -- Updating C cache (128 bytes @ 0x08003680)
T49F4 6468:119.672    -- Read from C cache (60 bytes @ 0x080036B0)
T49F4 6468:119.686   Data:  10 B5 96 B0 01 F0 12 FD 1C 22 11 49 68 46 FD F7 ...
T49F4 6468:119.698 - 1.874ms returns 60 (0x3C)
T49F4 6468:119.713 JLINK_ReadMemEx(0x080036B0, 0x2 Bytes, Flags = 0x02000000)
T49F4 6468:119.723    -- Read from C cache (2 bytes @ 0x080036B0)
T49F4 6468:119.735   Data:  10 B5
T49F4 6468:119.747 - 0.039ms returns 2 (0x2)
T49F4 6468:119.760 JLINK_ReadMemEx(0x080036B2, 0x2 Bytes, Flags = 0x02000000)
T49F4 6468:119.769    -- Read from C cache (2 bytes @ 0x080036B2)
T49F4 6468:119.781   Data:  96 B0
T49F4 6468:119.793 - 0.038ms returns 2 (0x2)
T49F4 6468:119.810 JLINK_ReadMemEx(0x080036B2, 0x2 Bytes, Flags = 0x02000000)
T49F4 6468:119.821    -- Read from C cache (2 bytes @ 0x080036B2)
T49F4 6468:119.833   Data:  96 B0
T49F4 6468:119.845 - 0.039ms returns 2 (0x2)
T49F4 6468:119.856 JLINK_ReadMemEx(0x080036B4, 0x3C Bytes, Flags = 0x02000000)
T49F4 6468:119.865    -- Read from C cache (60 bytes @ 0x080036B4)
T49F4 6468:119.878   Data:  01 F0 12 FD 1C 22 11 49 68 46 FD F7 4B F8 00 21 ...
T49F4 6468:119.889 - 0.037ms returns 60 (0x3C)
T49F4 6468:119.900 JLINK_ReadMemEx(0x080036B4, 0x2 Bytes, Flags = 0x02000000)
T49F4 6468:119.909    -- Read from C cache (2 bytes @ 0x080036B4)
T49F4 6468:119.921   Data:  01 F0
T49F4 6468:119.933 - 0.036ms returns 2 (0x2)
T68A0 6476:189.992 JLINK_ReadMemEx(0x08000BF4, 0x2 Bytes, Flags = 0x02000000)
T68A0 6476:190.023   CPU_ReadMem(64 bytes @ 0x08000BC0)
T68A0 6476:191.241    -- Updating C cache (64 bytes @ 0x08000BC0)
T68A0 6476:191.262    -- Read from C cache (2 bytes @ 0x08000BF4)
T68A0 6476:191.276   Data:  AB BE
T68A0 6476:191.288 - 1.300ms returns 2 (0x2)
T68A0 6476:191.301 JLINK_HasError()
T68A0 6476:191.315 JLINK_WriteReg(R15 (PC), 0x08000BF6)
T68A0 6476:191.327 - 0.015ms returns 0
T68A0 6476:191.337 JLINK_HasError()
T68A0 6476:191.347 JLINK_HasError()
T68A0 6476:191.358 JLINK_Go()
T68A0 6476:191.999   CPU_ReadMem(4 bytes @ 0xE0001000)
T68A0 6476:194.086 - 2.738ms
T68A0 6476:294.947 JLINK_HasError()
T68A0 6476:294.974 JLINK_IsHalted()
T68A0 6476:298.177 - 3.218ms returns TRUE
T68A0 6476:298.203 JLINK_HasError()
T68A0 6476:298.216 JLINK_Halt()
T68A0 6476:298.225 - 0.013ms returns 0x00
T68A0 6476:298.236 JLINK_IsHalted()
T68A0 6476:298.245 - 0.013ms returns TRUE
T68A0 6476:298.256 JLINK_IsHalted()
T68A0 6476:298.265 - 0.013ms returns TRUE
T68A0 6476:298.276 JLINK_IsHalted()
T68A0 6476:298.285 - 0.013ms returns TRUE
T68A0 6476:298.296 JLINK_HasError()
T68A0 6476:298.307 JLINK_ReadReg(R15 (PC))
T68A0 6476:298.319 - 0.016ms returns 0x08000BF4
T68A0 6476:298.330 JLINK_ReadReg(XPSR)
T68A0 6476:298.339 - 0.014ms returns 0x01000000
T68A0 6476:298.353 JLINK_HasError()
T68A0 6476:298.365 JLINK_HasError()
T68A0 6476:298.375 JLINK_ReadMemU32(0xE000ED30, 0x1 Items)
T68A0 6476:298.390   CPU_ReadMem(4 bytes @ 0xE000ED30)
T68A0 6476:298.934   Data:  03 00 00 00
T68A0 6476:298.952 - 0.581ms returns 1 (0x1)
T68A0 6476:298.966 JLINK_ReadMemU32(0xE0001028, 0x1 Items)
T68A0 6476:298.978   CPU_ReadMem(4 bytes @ 0xE0001028)
T68A0 6476:299.473   Data:  00 00 00 00
T68A0 6476:299.492   Debug reg: DWT_FUNC[0]
T68A0 6476:299.505 - 0.543ms returns 1 (0x1)
T68A0 6476:299.517 JLINK_ReadMemU32(0xE0001038, 0x1 Items)
T68A0 6476:299.530   CPU_ReadMem(4 bytes @ 0xE0001038)
T68A0 6476:300.019   Data:  00 02 00 00
T68A0 6476:300.037   Debug reg: DWT_FUNC[1]
T68A0 6476:300.050 - 0.537ms returns 1 (0x1)
T68A0 6476:300.063 JLINK_ReadMemU32(0xE0001048, 0x1 Items)
T68A0 6476:300.075   CPU_ReadMem(4 bytes @ 0xE0001048)
T68A0 6476:300.604   Data:  00 00 00 00
T68A0 6476:300.622   Debug reg: DWT_FUNC[2]
T68A0 6476:300.635 - 0.576ms returns 1 (0x1)
T68A0 6476:300.647 JLINK_ReadMemU32(0xE0001058, 0x1 Items)
T68A0 6476:300.663   CPU_ReadMem(4 bytes @ 0xE0001058)
T68A0 6476:301.286   Data:  00 00 00 00
T68A0 6476:301.304   Debug reg: DWT_FUNC[3]
T68A0 6476:301.317 - 0.673ms returns 1 (0x1)
T68A0 6476:301.370 JLINK_HasError()
T68A0 6476:301.383 JLINK_ReadReg(R0)
T68A0 6476:301.393 - 0.014ms returns 0x00000001
T68A0 6476:301.404 JLINK_ReadReg(R1)
T68A0 6476:301.413 - 0.013ms returns 0x2000D528
T68A0 6476:301.424 JLINK_ReadReg(R2)
T68A0 6476:301.434 - 0.014ms returns 0x00000000
T68A0 6476:301.445 JLINK_ReadReg(R3)
T68A0 6476:301.454 - 0.013ms returns 0x0800F731
T68A0 6476:301.465 JLINK_ReadReg(R4)
T68A0 6476:301.474 - 0.013ms returns 0x00000004
T68A0 6476:301.485 JLINK_ReadReg(R5)
T68A0 6476:301.494 - 0.013ms returns 0x00000002
T68A0 6476:301.505 JLINK_ReadReg(R6)
T68A0 6476:301.514 - 0.013ms returns 0x2000CEBC
T68A0 6476:301.525 JLINK_ReadReg(R7)
T68A0 6476:301.534 - 0.013ms returns 0x0800F730
T68A0 6476:301.545 JLINK_ReadReg(R8)
T68A0 6476:301.554 - 0.013ms returns 0x00000000
T68A0 6476:301.565 JLINK_ReadReg(R9)
T68A0 6476:301.574 - 0.013ms returns 0x00000000
T68A0 6476:301.586 JLINK_ReadReg(R10)
T68A0 6476:301.595 - 0.014ms returns 0x0800F890
T68A0 6476:301.607 JLINK_ReadReg(R11)
T68A0 6476:301.615 - 0.013ms returns 0x00000000
T68A0 6476:301.626 JLINK_ReadReg(R12)
T68A0 6476:301.635 - 0.013ms returns 0x00000000
T68A0 6476:301.646 JLINK_ReadReg(R13 (SP))
T68A0 6476:301.655 - 0.013ms returns 0x2000D528
T68A0 6476:301.665 JLINK_ReadReg(R14)
T68A0 6476:301.674 - 0.013ms returns 0x08000BEF
T68A0 6476:301.685 JLINK_ReadReg(R15 (PC))
T68A0 6476:301.694 - 0.013ms returns 0x08000BF4
T68A0 6476:301.705 JLINK_ReadReg(XPSR)
T68A0 6476:301.714 - 0.013ms returns 0x01000000
T68A0 6476:301.725 JLINK_ReadReg(MSP)
T68A0 6476:301.734 - 0.013ms returns 0x2000D528
T68A0 6476:301.745 JLINK_ReadReg(PSP)
T68A0 6476:301.754 - 0.013ms returns 0x00000000
T68A0 6476:301.765 JLINK_ReadReg(CFBP)
T68A0 6476:301.774 - 0.013ms returns 0x04000000
T68A0 6476:301.785 JLINK_ReadReg(FPSCR)
T68A0 6476:306.666 - 4.893ms returns 0x03000000
T68A0 6476:306.687 JLINK_ReadReg(FPS0)
T68A0 6476:306.698 - 0.016ms returns 0x00000000
T68A0 6476:306.710 JLINK_ReadReg(FPS1)
T68A0 6476:306.719 - 0.014ms returns 0x00000000
T68A0 6476:306.730 JLINK_ReadReg(FPS2)
T68A0 6476:306.739 - 0.013ms returns 0x00000000
T68A0 6476:306.750 JLINK_ReadReg(FPS3)
T68A0 6476:306.759 - 0.013ms returns 0x00000000
T68A0 6476:306.769 JLINK_ReadReg(FPS4)
T68A0 6476:306.779 - 0.013ms returns 0x00000000
T68A0 6476:306.790 JLINK_ReadReg(FPS5)
T68A0 6476:306.799 - 0.013ms returns 0x00000000
T68A0 6476:306.809 JLINK_ReadReg(FPS6)
T68A0 6476:306.819 - 0.013ms returns 0x00000000
T68A0 6476:306.829 JLINK_ReadReg(FPS7)
T68A0 6476:306.838 - 0.013ms returns 0x00000000
T68A0 6476:306.849 JLINK_ReadReg(FPS8)
T68A0 6476:306.858 - 0.013ms returns 0x00000000
T68A0 6476:306.871 JLINK_ReadReg(FPS9)
T68A0 6476:306.880 - 0.013ms returns 0x00000000
T68A0 6476:306.891 JLINK_ReadReg(FPS10)
T68A0 6476:306.900 - 0.013ms returns 0x00000000
T68A0 6476:306.910 JLINK_ReadReg(FPS11)
T68A0 6476:306.919 - 0.013ms returns 0x00000000
T68A0 6476:306.930 JLINK_ReadReg(FPS12)
T68A0 6476:306.939 - 0.013ms returns 0x00000000
T68A0 6476:306.950 JLINK_ReadReg(FPS13)
T68A0 6476:306.958 - 0.013ms returns 0x00000000
T68A0 6476:306.969 JLINK_ReadReg(FPS14)
T68A0 6476:306.978 - 0.013ms returns 0x00000000
T68A0 6476:306.988 JLINK_ReadReg(FPS15)
T68A0 6476:306.997 - 0.013ms returns 0x00000000
T68A0 6476:307.007 JLINK_ReadReg(FPS16)
T68A0 6476:307.016 - 0.013ms returns 0x00000000
T68A0 6476:307.027 JLINK_ReadReg(FPS17)
T68A0 6476:307.036 - 0.013ms returns 0x00000000
T68A0 6476:307.047 JLINK_ReadReg(FPS18)
T68A0 6476:307.055 - 0.013ms returns 0x00000000
T68A0 6476:307.066 JLINK_ReadReg(FPS19)
T68A0 6476:307.075 - 0.013ms returns 0x00000000
T68A0 6476:307.086 JLINK_ReadReg(FPS20)
T68A0 6476:307.094 - 0.013ms returns 0x00000000
T68A0 6476:307.105 JLINK_ReadReg(FPS21)
T68A0 6476:307.114 - 0.013ms returns 0x00000000
T68A0 6476:307.124 JLINK_ReadReg(FPS22)
T68A0 6476:307.137 - 0.017ms returns 0x00000000
T68A0 6476:307.148 JLINK_ReadReg(FPS23)
T68A0 6476:307.157 - 0.013ms returns 0x00000000
T68A0 6476:307.167 JLINK_ReadReg(FPS24)
T68A0 6476:307.176 - 0.013ms returns 0x00000000
T68A0 6476:307.187 JLINK_ReadReg(FPS25)
T68A0 6476:307.196 - 0.013ms returns 0x00000000
T68A0 6476:307.207 JLINK_ReadReg(FPS26)
T68A0 6476:307.215 - 0.013ms returns 0x00000000
T68A0 6476:307.226 JLINK_ReadReg(FPS27)
T68A0 6476:307.235 - 0.013ms returns 0x00000000
T68A0 6476:307.245 JLINK_ReadReg(FPS28)
T68A0 6476:307.254 - 0.013ms returns 0x00000000
T68A0 6476:307.265 JLINK_ReadReg(FPS29)
T68A0 6476:307.275 - 0.015ms returns 0x00000000
T68A0 6476:307.286 JLINK_ReadReg(FPS30)
T68A0 6476:307.295 - 0.013ms returns 0x00000000
T68A0 6476:307.305 JLINK_ReadReg(FPS31)
T68A0 6476:307.314 - 0.013ms returns 0x00000000
T49F4 6476:307.593 JLINK_ReadMemEx(0x2000D534, 0x4 Bytes, Flags = 0x02000000)
T49F4 6476:307.617   CPU_ReadMem(64 bytes @ 0x2000D500)
T49F4 6476:308.817    -- Updating C cache (64 bytes @ 0x2000D500)
T49F4 6476:308.839    -- Read from C cache (4 bytes @ 0x2000D534)
T49F4 6476:308.854   Data:  7B 0D 00 08
T49F4 6476:308.870 - 1.285ms returns 4 (0x4)
T49F4 6476:308.896 JLINK_ReadMemEx(0x2000D534, 0x4 Bytes, Flags = 0x02000000)
T49F4 6476:308.912    -- Read from C cache (4 bytes @ 0x2000D534)
T49F4 6476:308.934   Data:  7B 0D 00 08
T49F4 6476:308.950 - 0.058ms returns 4 (0x4)
T49F4 6476:308.966 JLINK_ReadMemEx(0x2000D54C, 0x4 Bytes, Flags = 0x02000000)
T49F4 6476:308.990   CPU_ReadMem(64 bytes @ 0x2000D540)
T49F4 6476:310.210    -- Updating C cache (64 bytes @ 0x2000D540)
T49F4 6476:310.232    -- Read from C cache (4 bytes @ 0x2000D54C)
T49F4 6476:310.246   Data:  21 0B 00 08
T49F4 6476:310.259 - 1.297ms returns 4 (0x4)
